Point	Freq (Hz)	Vin	Vout	Gain (dB)
1	10	2	1.989	-0.048
2	10.474	2	1.99	-0.045
3	10.97	2	1.991	-0.041
4	11.49	2	1.991	-0.039
5	12.034	2	1.992	-0.035
6	12.604	2	1.993	-0.032
7	13.201	2	1.993	-0.029
8	13.826	2	1.994	-0.026
9	14.481	2	1.994	-0.024
10	15.167	2	1.995	-0.022
11	15.886	2	1.996	-0.019
12	16.638	2	1.996	-0.017
13	17.426	2	1.997	-0.015
14	18.252	2	1.997	-0.013
15	19.116	2	1.997	-0.011
16	20.022	2	1.998	-0.009
17	20.97	2	1.998	-0.007
18	21.964	2	1.999	-0.005
19	23.004	2	1.999	-0.003
20	24.094	2	2	-0.001
21	25.235	2	2	0.001
22	26.431	2	2.001	0.003
23	27.683	2	2.001	0.005
24	28.994	2	2.002	0.007
25	30.368	2	2.002	0.01
26	31.806	2	2.003	0.012
27	33.313	2	2.003	0.015
28	34.891	2	2.004	0.018
29	36.544	2	2.005	0.021
30	38.275	2	2.006	0.024
31	40.088	2	2.006	0.028
32	41.987	2	2.007	0.032
33	43.976	2	2.008	0.036
34	46.059	2	2.009	0.04
35	48.241	2	2.01	0.045
36	50.526	2	2.012	0.051
37	52.92	2	2.013	0.056
38	55.427	2	2.014	0.063
39	58.052	2	2.016	0.07
40	60.802	2	2.018	0.077
41	63.682	2	2.02	0.085
42	66.699	2	2.022	0.094
43	69.859	2	2.024	0.104
44	73.168	2	2.026	0.114
45	76.634	2	2.029	0.126
46	80.264	2	2.032	0.139
47	84.067	2	2.035	0.152
48	88.049	2	2.039	0.168
49	92.22	2	2.043	0.184
50	96.588	2	2.047	0.202
51	101.164	2	2.052	0.222
52	105.956	2	2.057	0.243
53	110.975	2	2.062	0.267
54	116.232	2	2.068	0.292
55	121.738	2	2.075	0.32
56	127.505	2	2.082	0.351
57	133.545	2	2.09	0.384
58	139.871	2	2.099	0.42
59	146.497	2	2.109	0.46
60	153.437	2	2.119	0.503
61	160.705	2	2.131	0.55
62	168.318	2	2.143	0.601
63	176.291	2	2.157	0.656
64	184.642	2	2.172	0.716
65	193.389	2	2.188	0.782
66	202.55	2	2.206	0.852
67	212.145	2	2.226	0.929
68	222.195	2	2.247	1.012
69	232.72	2	2.271	1.102
70	243.744	2	2.296	1.199
71	255.291	2	2.324	1.304
72	267.384	2	2.354	1.417
73	280.05	2	2.388	1.539
74	293.317	2	2.424	1.67
75	307.211	2	2.463	1.81
76	321.764	2	2.507	1.961
77	337.006	2	2.554	2.123
78	352.971	2	2.605	2.296
79	369.691	2	2.661	2.481
80	387.204	2	2.723	2.679
81	405.546	2	2.79	2.89
82	424.757	2	2.863	3.115
83	444.878	2	2.943	3.355
84	465.953	2	3.03	3.61
85	488.025	2	3.127	3.881
86	511.143	2	3.232	4.168
87	535.357	2	3.347	4.472
88	560.717	2	3.472	4.792
89	587.279	2	3.61	5.131
90	615.099	2	3.762	5.488
91	644.236	2	3.929	5.864
92	674.754	2	4.113	6.263
93	706.718	2	4.318	6.685
94	740.196	2	4.545	7.13
95	775.26	2	4.797	7.599
96	811.984	2	5.077	8.092
97	850.449	2	5.39	8.611
98	890.735	2	5.741	9.159
99	932.93	2	6.135	9.736
100	977.124	2	6.575	10.338
101	1023.411	2	7.071	10.97
102	1071.891	2	7.626	11.625
103	1122.668	2	8.243	12.301
104	1175.85	2	8.92	12.987
105	1231.551	2	9.647	13.667
106	1289.89	2	10.397	14.317
107	1350.994	2	11.124	14.904
108	1414.991	2	11.752	15.382
109	1482.021	2	12.197	15.705
110	1552.225	2	12.381	15.834
111	1625.756	2	12.266	15.753
112	1702.769	2	11.88	15.476
113	1783.431	2	11.297	15.038
114	1867.914	2	10.6	14.485
115	1956.398	2	9.868	13.864
116	2049.075	2	9.148	13.206
117	2146.141	2	8.474	12.541
118	2247.806	2	7.854	11.882
119	2354.286	2	7.297	11.242
120	2465.811	2	6.796	10.625
121	2582.619	2	6.35	10.036
122	2704.96	2	5.953	9.474
123	2833.096	2	5.597	8.938
124	2967.302	2	5.28	8.432
125	3107.866	2	4.997	7.953
126	3255.089	2	4.742	7.499
127	3409.285	2	4.513	7.068
128	3570.786	2	4.305	6.659
129	3739.937	2	4.118	6.274
130	3917.101	2	3.95	5.911
131	4102.658	2	3.797	5.568
132	4297.005	2	3.658	5.244
133	4500.558	2	3.532	4.939
134	4713.753	2	3.416	4.65
135	4937.048	2	3.311	4.378
136	5170.92	2	3.214	4.121
137	5415.871	2	3.126	3.88
138	5672.426	2	3.046	3.653
139	5941.134	2	2.972	3.44
140	6222.571	2	2.905	3.241
141	6517.34	2	2.843	3.055
142	6826.072	2	2.787	2.882
143	7149.429	2	2.735	2.719
144	7488.104	2	2.688	2.568
145	7842.822	2	2.645	2.427
146	8214.344	2	2.605	2.297
147	8603.464	2	2.569	2.175
148	9011.018	2	2.536	2.063
149	9437.878	2	2.506	1.958
150	9884.959	2	2.478	1.862
151	10353.218	2	2.453	1.773
152	10843.66	2	2.43	1.691
153	11357.334	2	2.409	1.615
154	11895.341	2	2.389	1.545
155	12458.834	2	2.372	1.481
156	13049.02	2	2.356	1.422
157	13667.164	2	2.341	1.367
158	14314.589	2	2.328	1.317
159	14992.684	2	2.315	1.271
160	15702.901	2	2.304	1.229
161	16446.762	2	2.294	1.19
162	17225.86	2	2.284	1.155
163	18041.864	2	2.276	1.123
164	18896.523	2	2.268	1.093
165	19791.669	2	2.261	1.067
166	20729.218	2	2.255	1.042
167	21711.179	2	2.249	1.02
168	22739.658	2	2.244	1
169	23816.856	2	2.239	0.982
170	24945.081	2	2.235	0.965
171	26126.752	2	2.231	0.951
172	27364.4	2	2.228	0.938
173	28660.676	2	2.225	0.927
174	30018.358	2	2.223	0.916
175	31440.355	2	2.22	0.908
176	32929.713	2	2.218	0.9
177	34489.623	2	2.217	0.894
178	36123.427	2	2.216	0.889
179	37834.626	2	2.215	0.885
180	39626.886	2	2.214	0.882
181	41504.048	2	2.213	0.881
182	43470.132	2	2.213	0.88
183	45529.351	2	2.214	0.881
184	47686.117	2	2.214	0.883
185	49945.051	2	2.215	0.885
186	52310.993	2	2.216	0.889
187	54789.012	2	2.217	0.894
188	57384.416	2	2.218	0.9
189	60102.768	2	2.22	0.908
190	62949.89	2	2.223	0.917
191	65931.883	2	2.225	0.927
192	69055.135	2	2.228	0.939
193	72326.339	2	2.232	0.952
194	75752.503	2	2.236	0.967
195	79340.967	2	2.24	0.984
196	83099.419	2	2.245	1.003
197	87035.914	2	2.25	1.024
198	91158.883	2	2.256	1.047
199	95477.161	2	2.263	1.073
200	100000	2	2.27	1.101
