Point	Freq (Hz)	Vin	Vout	Gain (dB)					
1	10	2	1.988	-0.054				Max Gain (dB)	-15.901
2	10.474	2	1.989	-0.05				f1 3db	-12.901
3	10.97	2	1.989	-0.048				f1 10db	-5.901
4	11.49	2	1.99	-0.045					
5	12.034	2	1.99	-0.042					
6	12.604	2	1.991	-0.04					
7	13.201	2	1.991	-0.038					
8	13.826	2	1.992	-0.036					
9	14.481	2	1.992	-0.034					
10	15.167	2	1.992	-0.033					
11	15.886	2	1.993	-0.032					
12	16.638	2	1.993	-0.03					
13	17.426	2	1.993	-0.03					
14	18.252	2	1.993	-0.029					
15	19.116	2	1.993	-0.029					
16	20.022	2	1.993	-0.028
17	20.97	2	1.994	-0.028
18	21.964	2	1.994	-0.028
19	23.004	2	1.994	-0.028
20	24.094	2	1.993	-0.029
21	25.235	2	1.993	-0.029
22	26.431	2	1.993	-0.03
23	27.683	2	1.993	-0.031
24	28.994	2	1.993	-0.032
25	30.368	2	1.992	-0.033
26	31.806	2	1.992	-0.035
27	33.313	2	1.991	-0.037
28	34.891	2	1.991	-0.039
29	36.544	2	1.991	-0.041
30	38.275	2	1.99	-0.044
31	40.088	2	1.989	-0.047
32	41.987	2	1.988	-0.05
33	43.976	2	1.988	-0.054
34	46.059	2	1.987	-0.058
35	48.241	2	1.986	-0.062
36	50.526	2	1.985	-0.067
37	52.92	2	1.983	-0.073
38	55.427	2	1.982	-0.079
39	58.052	2	1.981	-0.085
40	60.802	2	1.979	-0.092
41	63.682	2	1.977	-0.1
42	66.699	2	1.975	-0.109
43	69.859	2	1.973	-0.118
44	73.168	2	1.971	-0.129
45	76.634	2	1.968	-0.14
46	80.264	2	1.965	-0.153
47	84.067	2	1.962	-0.167
48	88.049	2	1.959	-0.182
49	92.22	2	1.955	-0.198
50	96.588	2	1.951	-0.216
51	101.164	2	1.946	-0.236
52	105.956	2	1.942	-0.258
53	110.975	2	1.936	-0.282
54	116.232	2	1.93	-0.307
55	121.738	2	1.924	-0.336
56	127.505	2	1.917	-0.366
57	133.545	2	1.91	-0.4
58	139.871	2	1.902	-0.437
59	146.497	2	1.893	-0.477
60	153.437	2	1.884	-0.52
61	160.705	2	1.873	-0.568
62	168.318	2	1.862	-0.619
63	176.291	2	1.85	-0.675
64	184.642	2	1.837	-0.736
65	193.389	2	1.824	-0.802
66	202.55	2	1.809	-0.874
67	212.145	2	1.792	-0.952
68	222.195	2	1.775	-1.036
69	232.72	2	1.757	-1.127
70	243.744	2	1.737	-1.225
71	255.291	2	1.716	-1.332
72	267.384	2	1.693	-1.446
73	280.05	2	1.669	-1.569
74	293.317	2	1.644	-1.701
75	307.211	2	1.618	-1.843
76	321.764	2	1.59	-1.995
77	337.006	2	1.56	-2.158
78	352.971	2	1.529	-2.332
79	369.691	2	1.497	-2.519
80	387.204	2	1.463	-2.718
81	405.546	2	1.427	-2.93
82	424.757	2	1.391	-3.156
83	444.878	2	1.353	-3.396
84	465.953	2	1.313	-3.652
85	488.025	2	1.273	-3.923
86	511.143	2	1.232	-4.21
87	535.357	2	1.189	-4.515
88	560.717	2	1.146	-4.836
89	587.279	2	1.102	-5.175
90	615.099	2	1.058	-5.535
91	644.236	2	1.012	-5.913
92	674.754	2	0.967	-6.313
93	706.718	2	0.921	-6.735
94	740.196	2	0.875	-7.178
95	775.26	2	0.829	-7.647
96	811.984	2	0.783	-8.141	
97	850.449	2	0.738	-8.659	
98	890.735	2	0.693	-9.206	
99	932.93	2	0.649	-9.781	
100	977.124	2	0.605	-10.382	
101	1023.411	2	0.563	-11.012	
102	1071.891	2	0.522	-11.667	
103	1122.668	2	0.483	-12.339	
104	1175.85	2	0.447	-13.024	
105	1231.551	2	0.413	-13.705	
106	1289.89	2	0.383	-14.355	
107	1350.994	2	0.358	-14.943	
108	1414.991	2	0.339	-15.427	
109	1482.021	2	0.326	-15.759	
110	1552.225	2	0.321	-15.901	Center
111	1625.756	2	0.323	-15.833	
112	1702.769	2	0.333	-15.566
113	1783.431	2	0.35	-15.135
114	1867.914	2	0.373	-14.587
115	1956.398	2	0.401	-13.967
116	2049.075	2	0.432	-13.308
117	2146.141	2	0.467	-12.636
118	2247.806	2	0.504	-11.976
119	2354.286	2	0.543	-11.332
120	2465.811	2	0.583	-10.71
121	2582.619	2	0.624	-10.116
122	2704.96	2	0.666	-9.552
123	2833.096	2	0.709	-9.014
124	2967.302	2	0.751	-8.504
125	3107.866	2	0.794	-8.022
126	3255.089	2	0.837	-7.565
127	3409.285	2	0.88	-7.132
128	3570.786	2	0.922	-6.724
129	3739.937	2	0.964	-6.337
130	3917.101	2	1.006	-5.971
131	4102.658	2	1.046	-5.627
132	4297.005	2	1.086	-5.301
133	4500.558	2	1.125	-4.994
134	4713.753	2	1.164	-4.705
135	4937.048	2	1.201	-4.433
136	5170.92	2	1.237	-4.176
137	5415.871	2	1.271	-3.935
138	5672.426	2	1.305	-3.71
139	5941.134	2	1.337	-3.498
140	6222.571	2	1.368	-3.299
141	6517.34	2	1.398	-3.113
142	6826.072	2	1.426	-2.939
143	7149.429	2	1.453	-2.778
144	7488.104	2	1.478	-2.627
145	7842.822	2	1.502	-2.486
146	8214.344	2	1.525	-2.355
147	8603.464	2	1.547	-2.233
148	9011.018	2	1.567	-2.12
149	9437.878	2	1.586	-2.015
150	9884.959	2	1.604	-1.917
151	10353.218	2	1.62	-1.828
152	10843.66	2	1.636	-1.744
153	11357.334	2	1.651	-1.667
154	11895.341	2	1.664	-1.596
155	12458.834	2	1.677	-1.529
156	13049.02	2	1.689	-1.468
157	13667.164	2	1.7	-1.412
158	14314.589	2	1.71	-1.361
159	14992.684	2	1.719	-1.314
160	15702.901	2	1.728	-1.269
161	16446.762	2	1.736	-1.229
162	17225.86	2	1.743	-1.193
163	18041.864	2	1.75	-1.159
164	18896.523	2	1.756	-1.129
165	19791.669	2	1.762	-1.1
166	20729.218	2	1.767	-1.075
167	21711.179	2	1.772	-1.051
168	22739.658	2	1.776	-1.03
169	23816.856	2	1.78	-1.011
170	24945.081	2	1.784	-0.994
171	26126.752	2	1.787	-0.978
172	27364.4	2	1.79	-0.964
173	28660.676	2	1.793	-0.951
174	30018.358	2	1.795	-0.94
175	31440.355	2	1.797	-0.93
176	32929.713	2	1.799	-0.921
177	34489.623	2	1.8	-0.914
178	36123.427	2	1.802	-0.907
179	37834.626	2	1.803	-0.902
180	39626.886	2	1.804	-0.898
181	41504.048	2	1.804	-0.894
182	43470.132	2	1.805	-0.892
183	45529.351	2	1.805	-0.89
184	47686.117	2	1.805	-0.89
185	49945.051	2	1.805	-0.89
186	52310.993	2	1.805	-0.892
187	54789.012	2	1.804	-0.894
188	57384.416	2	1.804	-0.898
189	60102.768	2	1.803	-0.902
190	62949.89	2	1.802	-0.908
191	65931.883	2	1.8	-0.914
192	69055.135	2	1.799	-0.922
193	72326.339	2	1.797	-0.931
194	75752.503	2	1.795	-0.941
195	79340.967	2	1.792	-0.953
196	83099.419	2	1.789	-0.966
197	87035.914	2	1.787	-0.98
198	91158.883	2	1.783	-0.997
199	95477.161	2	1.78	-1.015
200	100000	2	1.775	-1.035
